!Keysight Technologies,E5071C,MY46736101,B.14.08

!Date: Wed Oct 16 19:22:7 2019
!Data & Calibration Information:
!Freq	S11:NONE(--)	S21:NONE(--)	S12:NONE(--)	S22:NONE(--)
# Hz S RI R 50
2000000000.000	4.608613e-01	1.951908e-01	5.797126e-06	-8.533131e-06	-2.001207e-05	6.370225e-06	-5.057155e-01	-7.576386e-01
2001000000.000	4.663824e-01	1.813943e-01	-2.883531e-06	-5.551038e-05	4.607718e-05	9.150307e-06	-5.286819e-01	-7.414985e-01
2002000000.000	4.716116e-01	1.674859e-01	-1.190673e-04	-8.795136e-05	-1.359077e-04	-4.633519e-05	-5.512120e-01	-7.245437e-01
2003000000.000	4.764658e-01	1.538418e-01	2.693379e-05	-4.491482e-05	-1.107448e-05	-5.575221e-05	-5.733934e-01	-7.068982e-01
2004000000.000	4.809338e-01	1.393930e-01	8.727002e-06	-1.740881e-05	1.138453e-05	2.632047e-05	-5.947024e-01	-6.883952e-01
2005000000.000	4.849872e-01	1.253383e-01	8.101343e-05	1.253942e-04	3.822496e-05	3.788564e-05	-6.155498e-01	-6.693548e-01
2006000000.000	4.884814e-01	1.109207e-01	-3.752751e-05	-8.568029e-05	5.586444e-05	4.534172e-05	-6.357006e-01	-6.500348e-01
2007000000.000	4.916229e-01	9.684825e-02	-7.763539e-05	9.188171e-06	-2.955654e-05	4.965842e-05	-6.556029e-01	-6.295993e-01
2008000000.000	4.940672e-01	8.216137e-02	-4.552093e-05	-6.828207e-05	-9.117450e-07	-2.185596e-06	-6.743802e-01	-6.084439e-01
2009000000.000	4.964072e-01	6.762417e-02	-5.357393e-05	2.260532e-05	-1.073665e-05	7.996497e-05	-6.928667e-01	-5.872211e-01
2010000000.000	4.982368e-01	5.301936e-02	1.296392e-05	7.773829e-05	1.210315e-04	3.663428e-05	-7.106621e-01	-5.649174e-01
2011000000.000	4.995387e-01	3.834664e-02	-4.130791e-05	-9.526419e-06	-7.827282e-05	1.600593e-04	-7.274178e-01	-5.425178e-01
2012000000.000	5.007396e-01	2.368458e-02	1.273403e-04	3.067398e-05	-1.252949e-04	5.092171e-05	-7.439180e-01	-5.191052e-01
2013000000.000	5.010919e-01	9.117147e-03	2.135446e-05	-7.666547e-05	-5.356961e-06	-1.147571e-04	-7.595089e-01	-4.956019e-01
2014000000.000	5.011920e-01	-5.570565e-03	-5.183152e-05	6.717397e-05	7.964162e-05	2.307152e-05	-7.743466e-01	-4.712715e-01
2015000000.000	5.008050e-01	-2.038482e-02	2.167249e-04	-5.517715e-05	-4.693157e-05	-4.329538e-05	-7.882122e-01	-4.468898e-01
2016000000.000	5.000203e-01	-3.484663e-02	-4.797867e-05	2.210066e-05	4.206800e-05	-1.212843e-05	-8.018907e-01	-4.218699e-01
2017000000.000	4.990378e-01	-4.964584e-02	-5.821671e-05	7.062921e-05	-5.274641e-05	-3.217359e-05	-8.142884e-01	-3.964076e-01
2018000000.000	4.971862e-01	-6.406409e-02	4.769886e-06	-1.060254e-04	-1.243098e-04	5.413908e-05	-8.259258e-01	-3.704911e-01
2019000000.000	4.952892e-01	-7.862990e-02	-2.062687e-05	-5.214695e-05	1.634781e-06	4.747303e-05	-8.367900e-01	-3.442457e-01
2020000000.000	4.926245e-01	-9.310732e-02	6.216171e-05	2.061184e-05	-4.242697e-06	4.219559e-05	-8.469854e-01	-3.176775e-01
2021000000.000	4.899023e-01	-1.072545e-01	9.041974e-05	8.303328e-05	4.391819e-05	-8.118114e-06	-8.563100e-01	-2.909372e-01
2022000000.000	4.866029e-01	-1.215208e-01	-2.517101e-05	-2.195837e-06	3.088328e-05	1.484693e-05	-8.644304e-01	-2.641972e-01
2023000000.000	4.829500e-01	-1.357763e-01	-2.036671e-05	6.410075e-05	1.087956e-04	-3.228285e-05	-8.722039e-01	-2.366018e-01
2024000000.000	4.786643e-01	-1.497297e-01	8.834189e-05	4.524355e-05	-3.466448e-05	5.334798e-05	-8.785234e-01	-2.090014e-01
2025000000.000	4.742469e-01	-1.636688e-01	7.494342e-05	-1.620696e-05	-5.971677e-06	1.768683e-05	-8.844553e-01	-1.814163e-01
2026000000.000	4.693990e-01	-1.774390e-01	6.018498e-05	2.231196e-05	5.150360e-05	-6.073016e-05	-8.893229e-01	-1.535749e-01
2027000000.000	4.638806e-01	-1.909787e-01	-9.311593e-05	9.035864e-06	-2.684605e-05	3.801951e-06	-8.935991e-01	-1.256081e-01
2028000000.000	4.580220e-01	-2.044866e-01	4.086962e-05	1.100224e-05	-1.186143e-05	2.513046e-05	-8.965819e-01	-9.734822e-02
2029000000.000	4.518507e-01	-2.175674e-01	-6.282152e-05	6.462304e-05	9.821146e-05	-4.765175e-05	-8.991136e-01	-6.942435e-02
2030000000.000	4.453013e-01	-2.306748e-01	-2.338282e-05	-4.002584e-06	-1.057993e-05	-2.760207e-05	-9.005597e-01	-4.097891e-02
2031000000.000	4.383701e-01	-2.432951e-01	5.473747e-05	4.041310e-05	8.378051e-05	-2.826193e-05	-9.010985e-01	-1.268535e-02
2032000000.000	4.311691e-01	-2.562662e-01	-3.868398e-05	-1.775758e-05	-4.516842e-05	-5.504861e-05	-9.008712e-01	1.532154e-02
2033000000.000	4.234440e-01	-2.685981e-01	-6.849597e-06	2.281494e-05	-3.319448e-05	7.271872e-05	-8.996411e-01	4.353004e-02
2034000000.000	4.154740e-01	-2.807692e-01	4.544499e-06	-4.367996e-05	8.615126e-06	2.520951e-05	-8.976118e-01	7.167127e-02
2035000000.000	4.073344e-01	-2.926659e-01	1.556403e-04	1.661164e-05	3.306196e-05	1.799432e-05	-8.947400e-01	9.942480e-02
2036000000.000	3.983626e-01	-3.045231e-01	-8.578590e-05	-4.433023e-05	-3.127593e-05	-5.210020e-05	-8.908324e-01	1.273160e-01
2037000000.000	3.892158e-01	-3.158223e-01	-2.990042e-05	4.345585e-06	-1.364429e-05	-3.632913e-05	-8.862598e-01	1.548833e-01
2038000000.000	3.799126e-01	-3.271519e-01	3.963277e-05	7.645899e-05	-6.033707e-05	-9.700514e-05	-8.806762e-01	1.825748e-01
2039000000.000	3.701064e-01	-3.378380e-01	4.643890e-05	3.780462e-05	2.956561e-05	4.019905e-05	-8.745238e-01	2.098565e-01
2040000000.000	3.600181e-01	-3.482046e-01	1.358783e-04	-4.571710e-05	-2.930526e-05	-5.123180e-05	-8.673505e-01	2.370186e-01
2041000000.000	3.497821e-01	-3.586516e-01	-3.945233e-05	-1.228344e-04	-9.317949e-06	-1.552032e-05	-8.592550e-01	2.637023e-01
2042000000.000	3.390801e-01	-3.687167e-01	-4.015424e-05	1.606444e-05	-4.632144e-05	9.340250e-06	-8.504771e-01	2.902874e-01
2043000000.000	3.281799e-01	-3.782532e-01	1.122749e-04	-2.887042e-07	-1.059788e-05	-8.523902e-05	-8.410339e-01	3.163409e-01
2044000000.000	3.168921e-01	-3.874193e-01	1.244102e-04	-9.155759e-06	-1.740300e-05	5.163374e-05	-8.305309e-01	3.421869e-01
2045000000.000	3.054230e-01	-3.964387e-01	-7.221093e-06	-8.084633e-05	-1.104003e-06	1.006925e-05	-8.193576e-01	3.678044e-01
2046000000.000	2.936456e-01	-4.051629e-01	2.745541e-05	-1.224889e-05	-9.533674e-05	1.055570e-04	-8.074632e-01	3.930271e-01
2047000000.000	2.816741e-01	-4.134348e-01	2.963851e-05	-5.448172e-05	-2.866134e-05	-1.366126e-06	-7.950680e-01	4.175571e-01
2048000000.000	2.692616e-01	-4.213448e-01	-1.109105e-04	8.962167e-05	-1.487572e-05	1.719470e-05	-7.817187e-01	4.422746e-01
2049000000.000	2.567102e-01	-4.289367e-01	-3.809194e-05	1.386898e-05	4.297064e-05	-7.630266e-05	-7.675321e-01	4.659609e-01
2050000000.000	2.441307e-01	-4.358606e-01	-4.706167e-05	6.824244e-05	-3.924483e-05	-6.944116e-05	-7.529200e-01	4.893392e-01
2051000000.000	2.310734e-01	-4.426284e-01	6.023627e-05	1.565742e-05	-3.282470e-05	5.299165e-05	-7.370398e-01	5.120328e-01
2052000000.000	2.177168e-01	-4.492160e-01	-2.336959e-05	-3.233220e-06	1.697651e-05	-4.636640e-05	-7.206708e-01	5.343251e-01
2053000000.000	2.045330e-01	-4.551251e-01	7.965911e-05	9.590951e-06	4.296670e-05	-1.004959e-04	-7.041988e-01	5.561378e-01
2054000000.000	1.908599e-01	-4.608588e-01	-7.340447e-05	4.571366e-05	-2.420269e-05	1.698727e-05	-6.867551e-01	5.771247e-01
2055000000.000	1.770852e-01	-4.659850e-01	9.139468e-06	-7.041473e-05	7.229187e-06	1.940456e-05	-6.686718e-01	5.976922e-01
2056000000.000	1.632455e-01	-4.706358e-01	3.520699e-05	-1.834902e-05	3.046408e-05	-1.391509e-05	-6.495854e-01	6.175906e-01
2057000000.000	1.491805e-01	-4.751347e-01	3.903485e-05	2.930733e-05	-1.615295e-04	9.054761e-05	-6.304783e-01	6.372664e-01
2058000000.000	1.351031e-01	-4.790084e-01	2.723108e-05	-2.906788e-05	5.010326e-05	5.089371e-05	-6.107846e-01	6.560126e-01
2059000000.000	1.208945e-01	-4.824804e-01	8.154269e-05	-6.439309e-05	3.178136e-06	-4.319887e-05	-5.904119e-01	6.742408e-01
2060000000.000	1.066171e-01	-4.857073e-01	4.245048e-05	7.940927e-05	3.112134e-05	2.555522e-05	-5.695239e-01	6.916154e-01
2061000000.000	9.218105e-02	-4.883513e-01	-2.592611e-05	-4.731850e-05	-4.503963e-06	4.917919e-05	-5.483034e-01	7.083001e-01
2062000000.000	7.758479e-02	-4.904998e-01	-2.192583e-05	-8.565453e-06	-7.507446e-05	1.640360e-04	-5.263775e-01	7.245021e-01
2063000000.000	6.307913e-02	-4.922487e-01	-1.231829e-05	-7.055543e-05	6.196406e-05	-4.882856e-05	-5.042922e-01	7.400416e-01
2064000000.000	4.846240e-02	-4.936901e-01	-1.076633e-04	4.190196e-06	6.181529e-05	-8.040353e-05	-4.815964e-01	7.547083e-01
2065000000.000	3.381869e-02	-4.946898e-01	-4.752325e-05	1.402016e-05	-2.979893e-05	-1.253470e-04	-4.588129e-01	7.685040e-01
2066000000.000	1.921540e-02	-4.952012e-01	3.771443e-05	-2.750153e-05	-1.900618e-05	6.272889e-05	-4.353599e-01	7.820863e-01
2067000000.000	4.536286e-03	-4.952070e-01	-1.055094e-05	1.195101e-04	-1.547506e-05	8.515293e-05	-4.116375e-01	7.948624e-01
2068000000.000	-1.014254e-02	-4.949071e-01	6.328915e-05	2.873100e-05	-6.519689e-05	2.615081e-06	-3.875972e-01	8.065903e-01
2069000000.000	-2.487690e-02	-4.940158e-01	-4.698415e-05	-8.523988e-05	-2.768692e-05	6.015021e-05	-3.635058e-01	8.178780e-01
2070000000.000	-3.938796e-02	-4.929066e-01	2.090456e-05	8.099083e-05	1.059384e-04	-6.736980e-05	-3.388618e-01	8.280984e-01
2071000000.000	-5.380252e-02	-4.912054e-01	-6.790343e-05	1.301029e-05	-5.864440e-05	-1.216991e-05	-3.138048e-01	8.379378e-01
2072000000.000	-6.831753e-02	-4.889438e-01	3.831849e-06	-2.411400e-06	7.840970e-05	2.867257e-05	-2.889598e-01	8.468433e-01
2073000000.000	-8.273472e-02	-4.864406e-01	-9.471914e-05	9.956252e-05	8.936902e-05	-4.598873e-05	-2.635471e-01	8.550869e-01
2074000000.000	-9.710898e-02	-4.836139e-01	-1.975104e-06	-4.452679e-05	8.453515e-05	4.846598e-05	-2.381946e-01	8.627734e-01
2075000000.000	-1.113716e-01	-4.801663e-01	-3.988679e-05	3.251987e-05	-3.406842e-05	-4.279047e-05	-2.123789e-01	8.694567e-01
2076000000.000	-1.254029e-01	-4.761673e-01	6.791020e-05	1.146766e-05	6.476211e-05	9.872564e-07	-1.868287e-01	8.751894e-01
2077000000.000	-1.395143e-01	-4.719751e-01	3.799087e-05	-5.613720e-05	3.594618e-05	6.544117e-05	-1.608149e-01	8.803021e-01
2078000000.000	-1.535106e-01	-4.673019e-01	8.180515e-05	-9.175284e-06	-6.050934e-05	-4.201659e-05	-1.347718e-01	8.846582e-01
2079000000.000	-1.671327e-01	-4.621094e-01	-1.835634e-05	-1.878296e-05	1.749762e-05	-4.625600e-05	-1.087893e-01	8.885796e-01
2080000000.000	-1.807681e-01	-4.568707e-01	1.318047e-05	2.038214e-05	-1.273466e-05	-8.642927e-05	-8.250985e-02	8.910359e-01
2081000000.000	-1.943286e-01	-4.508702e-01	-3.829025e-05	-7.172617e-05	1.005192e-04	6.076283e-05	-5.637188e-02	8.935270e-01
2082000000.000	-2.074255e-01	-4.446383e-01	-5.230776e-05	6.426710e-05	7.227694e-05	-9.006674e-05	-3.037014e-02	8.946012e-01
2083000000.000	-2.205453e-01	-4.378340e-01	1.676274e-05	5.318287e-05	7.389710e-05	-5.543423e-05	-4.108128e-03	8.956996e-01
2084000000.000	-2.335056e-01	-4.307970e-01	1.075985e-04	-5.953496e-05	-7.196155e-05	9.332119e-05	2.190473e-02	8.954239e-01
2085000000.000	-2.459572e-01	-4.233087e-01	-3.260911e-05	3.043450e-05	3.465634e-06	1.981626e-05	4.800897e-02	8.944332e-01
2086000000.000	-2.582200e-01	-4.155008e-01	-1.772137e-05	-6.030370e-05	-9.131119e-05	1.355980e-06	7.411799e-02	8.927569e-01
2087000000.000	-2.705429e-01	-4.072311e-01	-2.154609e-05	-4.379540e-05	7.066255e-05	5.995067e-05	9.996636e-02	8.908113e-01
2088000000.000	-2.824245e-01	-3.987158e-01	-6.428634e-05	-5.226047e-05	-4.076390e-05	-8.283166e-06	1.256991e-01	8.874861e-01
2089000000.000	-2.939456e-01	-3.899195e-01	8.743154e-05	-4.092166e-05	-1.365320e-04	4.956132e-05	1.513516e-01	8.835767e-01
2090000000.000	-3.053908e-01	-3.802056e-01	-8.418865e-05	1.738711e-04	-2.598618e-07	5.043928e-06	1.768687e-01	8.789911e-01
2091000000.000	-3.163108e-01	-3.708461e-01	7.162225e-05	1.335393e-05	1.417988e-04	1.992211e-06	2.022554e-01	8.738116e-01
2092000000.000	-3.271039e-01	-3.608947e-01	5.943644e-05	2.181949e-05	1.939961e-05	7.565173e-06	2.274586e-01	8.677965e-01
2093000000.000	-3.377644e-01	-3.504197e-01	-1.237701e-04	-3.285148e-05	2.772430e-05	-4.135147e-05	2.523694e-01	8.611097e-01
2094000000.000	-3.477945e-01	-3.399517e-01	5.924473e-06	8.295319e-05	2.098258e-05	-7.304227e-05	2.772243e-01	8.541184e-01
2095000000.000	-3.575489e-01	-3.292137e-01	-5.757866e-05	3.069824e-05	1.171439e-05	5.524011e-05	3.017133e-01	8.457670e-01
2096000000.000	-3.670877e-01	-3.181531e-01	-3.684095e-06	-9.173618e-05	-3.541685e-05	-1.064386e-04	3.258376e-01	8.369803e-01
2097000000.000	-3.763230e-01	-3.064070e-01	-5.409941e-05	8.330908e-06	-9.189057e-05	-5.888186e-05	3.497374e-01	8.275874e-01
2098000000.000	-3.850989e-01	-2.946100e-01	2.726575e-05	4.761561e-05	-1.916303e-05	4.682495e-05	3.736634e-01	8.175825e-01
2099000000.000	-3.934192e-01	-2.827244e-01	-6.002908e-06	-8.004473e-05	-2.637946e-05	-5.125136e-05	3.966526e-01	8.070202e-01
2100000000.000	-4.017668e-01	-2.704460e-01	-7.053564e-05	-9.852028e-05	1.744684e-04	7.030097e-05	4.198499e-01	7.956961e-01
2101000000.000	-4.093147e-01	-2.580216e-01	1.248967e-05	-1.319423e-05	-2.981200e-06	-2.508991e-05	4.420869e-01	7.833544e-01
2102000000.000	-4.167993e-01	-2.451631e-01	8.161976e-05	6.662025e-05	-1.550523e-04	-5.797252e-05	4.641862e-01	7.705806e-01
2103000000.000	-4.235694e-01	-2.324455e-01	-2.451878e-05	8.205052e-05	-5.058563e-05	-4.210357e-05	4.856000e-01	7.576472e-01
2104000000.000	-4.301048e-01	-2.193746e-01	-8.661550e-05	-5.855853e-05	-6.873861e-05	-5.968292e-05	5.069630e-01	7.437609e-01
2105000000.000	-4.365250e-01	-2.063377e-01	3.526395e-05	2.441943e-06	-8.357325e-05	7.462653e-05	5.276111e-01	7.295306e-01
2106000000.000	-4.421240e-01	-1.925964e-01	1.003599e-05	-1.239159e-06	-1.656346e-05	-6.371648e-05	5.479326e-01	7.144926e-01
2107000000.000	-4.473548e-01	-1.791744e-01	-6.596793e-06	5.105830e-05	6.292896e-05	1.079332e-04	5.679444e-01	6.988222e-01
2108000000.000	-4.524283e-01	-1.652518e-01	6.116346e-05	1.849685e-05	5.124921e-05	4.240404e-05	5.873195e-01	6.829587e-01
2109000000.000	-4.571292e-01	-1.513907e-01	1.069700e-06	-9.080227e-05	7.263650e-05	-6.852618e-06	6.061378e-01	6.660580e-01
2110000000.000	-4.608906e-01	-1.373116e-01	5.403006e-06	-2.190593e-05	-2.443939e-05	-1.336000e-04	6.248453e-01	6.490644e-01
2111000000.000	-4.647485e-01	-1.232697e-01	2.888660e-05	1.344818e-05	-6.635268e-05	8.236297e-05	6.426025e-01	6.315925e-01
2112000000.000	-4.679095e-01	-1.089654e-01	-2.973709e-06	5.625993e-06	4.949962e-05	-6.578717e-06	6.603530e-01	6.134807e-01
2113000000.000	-4.708478e-01	-9.469521e-02	-2.735982e-05	9.087968e-05	2.943338e-05	-5.136321e-05	6.771310e-01	5.951152e-01
2114000000.000	-4.729721e-01	-8.015029e-02	-9.739150e-06	-2.464187e-06	3.401651e-05	1.161262e-05	6.935957e-01	5.759990e-01
2115000000.000	-4.752059e-01	-6.569687e-02	1.004441e-04	9.515612e-07	-1.951528e-05	-1.920831e-05	7.095558e-01	5.568768e-01
2116000000.000	-4.767267e-01	-5.096660e-02	-4.257097e-05	5.942014e-05	1.065357e-05	-8.590968e-05	7.249137e-01	5.368009e-01
2117000000.000	-4.777989e-01	-3.653942e-02	7.581206e-06	-1.855097e-05	-1.237577e-04	-5.112343e-05	7.397293e-01	5.163859e-01
2118000000.000	-4.783012e-01	-2.171012e-02	4.532011e-05	1.666072e-05	1.247941e-04	2.862150e-05	7.538213e-01	4.959613e-01
2119000000.000	-4.784050e-01	-7.386422e-03	2.099695e-05	5.873223e-05	-1.791015e-05	5.696905e-05	7.676340e-01	4.750597e-01
2120000000.000	-4.783723e-01	7.113428e-03	-3.808870e-06	-9.240988e-06	-3.662201e-05	-1.078604e-04	7.807723e-01	4.535223e-01
2121000000.000	-4.774243e-01	2.172865e-02	9.130658e-05	-1.247821e-05	2.176060e-05	4.366136e-05	7.930654e-01	4.320368e-01
2122000000.000	-4.763689e-01	3.628428e-02	-8.667456e-05	-8.516988e-05	6.020871e-05	-6.833406e-05	8.050031e-01	4.099005e-01
2123000000.000	-4.747162e-01	5.068240e-02	2.693594e-05	-8.560293e-05	6.541226e-05	-2.967322e-05	8.161634e-01	3.873857e-01
2124000000.000	-4.726981e-01	6.515120e-02	-2.029077e-05	-2.835251e-05	4.175454e-05	3.039086e-05	8.267570e-01	3.645813e-01
2125000000.000	-4.705022e-01	7.967070e-02	-3.973324e-05	-3.641698e-05	-3.507143e-05	-2.736487e-05	8.366832e-01	3.416351e-01
2126000000.000	-4.675158e-01	9.387855e-02	4.744088e-06	1.159250e-04	5.386092e-05	4.531910e-05	8.462519e-01	3.184717e-01
2127000000.000	-4.642400e-01	1.081268e-01	-3.506291e-05	-5.387790e-05	2.155820e-05	3.906263e-05	8.549512e-01	2.950546e-01
2128000000.000	-4.604803e-01	1.222431e-01	-4.451176e-06	-4.187009e-05	1.721489e-05	2.379915e-05	8.628732e-01	2.711873e-01
2129000000.000	-4.564623e-01	1.362540e-01	-1.809818e-05	6.122747e-05	9.959996e-06	2.861404e-05	8.704636e-01	2.473225e-01
2130000000.000	-4.516922e-01	1.500796e-01	-1.528267e-05	-3.525729e-05	1.134962e-05	-2.532753e-06	8.770460e-01	2.229356e-01
2131000000.000	-4.468962e-01	1.638230e-01	-5.757480e-06	-4.717365e-05	4.370477e-06	3.944807e-05	8.831875e-01	1.989477e-01
2132000000.000	-4.413649e-01	1.773793e-01	-1.421387e-05	5.630877e-05	2.399863e-05	7.442167e-05	8.886755e-01	1.745073e-01
2133000000.000	-4.355658e-01	1.906272e-01	5.803314e-05	-9.129023e-05	6.378109e-05	-1.987512e-05	8.935180e-01	1.499473e-01
2134000000.000	-4.292982e-01	2.036960e-01	2.950388e-05	2.073635e-05	-5.406876e-05	7.335659e-05	8.975456e-01	1.251618e-01
2135000000.000	-4.226907e-01	2.169819e-01	1.201155e-04	4.495122e-05	-2.092004e-05	7.267391e-06	9.006151e-01	1.001698e-01
2136000000.000	-4.157056e-01	2.296302e-01	-9.073874e-05	-2.663900e-05	-1.832097e-05	-1.000461e-05	9.034258e-01	7.507799e-02
2137000000.000	-4.083538e-01	2.422016e-01	-6.847515e-05	1.588705e-05	-5.305708e-05	-1.235543e-04	9.051850e-01	5.021015e-02
2138000000.000	-4.007768e-01	2.545213e-01	5.252020e-05	-2.726101e-05	-2.188068e-05	-5.188946e-05	9.067380e-01	2.526121e-02
2139000000.000	-3.926775e-01	2.665481e-01	-2.882227e-05	-6.756401e-05	-5.925265e-05	2.068906e-06	9.070673e-01	4.288043e-06
2140000000.000	-3.840868e-01	2.784295e-01	9.907783e-05	2.546714e-05	9.017083e-05	1.119715e-05	9.071896e-01	-2.516839e-02
2141000000.000	-3.753587e-01	2.899357e-01	-6.574930e-05	5.019449e-05	6.842657e-05	1.118417e-04	9.062817e-01	-5.007256e-02
2142000000.000	-3.660100e-01	3.013484e-01	7.173140e-05	-2.902914e-05	-4.253077e-05	5.232774e-05	9.048134e-01	-7.519297e-02
2143000000.000	-3.564524e-01	3.123519e-01	4.078072e-05	-6.687684e-05	1.565900e-04	3.482129e-05	9.023382e-01	-1.004206e-01
2144000000.000	-3.467496e-01	3.230417e-01	3.166460e-05	1.001510e-04	1.217834e-05	-2.489746e-05	8.994317e-01	-1.255592e-01
2145000000.000	-3.367460e-01	3.334743e-01	2.394152e-05	3.086252e-05	-2.890178e-05	3.746123e-05	8.956859e-01	-1.505983e-01
2146000000.000	-3.260265e-01	3.436253e-01	1.554452e-05	-1.836525e-04	-1.405815e-06	6.551316e-05	8.916938e-01	-1.751942e-01
2147000000.000	-3.154155e-01	3.533488e-01	7.977001e-05	6.239876e-05	3.429270e-05	-3.086961e-05	8.863447e-01	-1.999298e-01
2148000000.000	-3.043885e-01	3.628020e-01	1.628980e-05	-4.464355e-05	-6.927437e-05	1.383572e-05	8.807214e-01	-2.247305e-01
2149000000.000	-2.931993e-01	3.720342e-01	-7.255639e-05	1.722000e-05	1.655273e-06	6.330365e-05	8.741616e-01	-2.492182e-01
2150000000.000	-2.814943e-01	3.805724e-01	-8.507468e-05	-2.802342e-05	-1.155628e-05	-7.870709e-05	8.669690e-01	-2.732658e-01
2151000000.000	-2.696744e-01	3.892574e-01	-3.439091e-05	-1.112756e-04	5.949578e-05	3.323812e-05	8.594356e-01	-2.972637e-01
2152000000.000	-2.577181e-01	3.970793e-01	1.012899e-04	4.518153e-05	-1.101448e-04	7.248870e-05	8.507056e-01	-3.210342e-01
2153000000.000	-2.454642e-01	4.047638e-01	-1.574367e-05	2.233661e-05	2.586164e-05	-3.050583e-05	8.419044e-01	-3.446667e-01
2154000000.000	-2.331747e-01	4.120693e-01	-3.081460e-05	-1.816303e-05	4.414965e-05	-2.397823e-05	8.320759e-01	-3.677479e-01
2155000000.000	-2.206210e-01	4.189745e-01	4.110983e-05	1.146074e-05	-4.827673e-05	8.823415e-05	8.215478e-01	-3.910208e-01
2156000000.000	-2.076538e-01	4.253141e-01	7.957950e-05	1.218900e-05	-8.152599e-05	6.204511e-05	8.105571e-01	-4.138129e-01
2157000000.000	-1.946419e-01	4.316485e-01	-2.426941e-05	1.821469e-05	-1.990211e-05	-1.509050e-06	7.988299e-01	-4.362319e-01
2158000000.000	-1.812274e-01	4.373771e-01	8.282767e-05	6.466511e-06	8.137708e-05	2.802765e-05	7.864817e-01	-4.584873e-01
2159000000.000	-1.680130e-01	4.427744e-01	4.231350e-05	9.185810e-05	-7.864125e-05	-2.204285e-05	7.732298e-01	-4.804885e-01
2160000000.000	-1.543780e-01	4.475997e-01	-7.278460e-05	9.359208e-07	8.108636e-06	-3.826113e-05	7.595694e-01	-5.017867e-01
